
T1613C 046:919 SEGGER J-Link V6.46 Log File (0000ms, 0004ms total)
T1613C 046:919 DLL Compiled: May 23 2019 17:49:56 (0000ms, 0004ms total)
T1613C 046:919 Logging started @ 2023-04-17 14:36 (0000ms, 0004ms total)
T1613C 046:919 JLINK_SetWarnOutHandler(...) (0001ms, 0005ms total)
T1613C 046:920 JLINK_OpenEx(...)
Firmware: J-Link V9 compiled May  7 2021 16:26:12
Hardware: V9.60
S/N: 59610072
Feature(s): RDI, GDB, FlashDL, FlashBP, JFlash
TELNET listener socket opened on port 19021WEBSRV 
Starting webserver (0040ms, 0045ms total)
T1613C 046:920 WEBSRV Webserver running on local port 19080 (0040ms, 0045ms total)
T1613C 046:920   returns O.K. (0040ms, 0045ms total)
T1613C 046:960 JLINK_GetEmuCaps()  returns 0xB9FF7BBF (0000ms, 0045ms total)
T1613C 046:960 JLINK_TIF_GetAvailable(...) (0001ms, 0046ms total)
T1613C 046:961 JLINK_SetErrorOutHandler(...) (0000ms, 0046ms total)
T1613C 046:961 JLINK_ExecCommand("ProjectFile = "F:\RF_HAND\RF_HAND_GD32E230_V0005\MDK\JLinkSettings.ini"", ...). Ref file found at: D:\Keil_v5\ARM\Segger\JLinkDevices.ref (0007ms, 0053ms total)
T1613C 046:961 REF file references invalid XML file: C:\Program Files\SEGGER\JLink\JLinkDevices.xml (0007ms, 0053ms total)
T1613C 046:961 Device "CORTEX-M23" selected.  returns 0x00 (0012ms, 0058ms total)
T1613C 046:976 JLINK_ExecCommand("Device = GD32E230C8", ...). Device "CORTEX-M23" selected.  returns 0x00 (0005ms, 0063ms total)
T1613C 046:981 JLINK_ExecCommand("DisableConnectionTimeout", ...).   returns 0x01 (0000ms, 0063ms total)
T1613C 046:981 JLINK_GetHardwareVersion()  returns 0x17700 (0000ms, 0063ms total)
T1613C 046:981 JLINK_GetDLLVersion()  returns 64600 (0000ms, 0063ms total)
T1613C 046:981 JLINK_GetFirmwareString(...) (0000ms, 0063ms total)
T1613C 046:987 JLINK_GetDLLVersion()  returns 64600 (0000ms, 0063ms total)
T1613C 046:987 JLINK_GetCompileDateTime() (0000ms, 0063ms total)
T1613C 046:988 JLINK_GetFirmwareString(...) (0000ms, 0063ms total)
T1613C 046:990 JLINK_GetHardwareVersion()  returns 0x17700 (0000ms, 0063ms total)
T1613C 046:998 JLINK_TIF_Select(JLINKARM_TIF_SWD)  returns 0x00 (0002ms, 0065ms total)
T1613C 047:000 JLINK_SetSpeed(1000) (0000ms, 0065ms total)
T1613C 047:000 JLINK_GetId() >0x10B TIF>Found SW-DP with ID 0x0BF11477 >0x0D TIF> >0x28 TIF> >0x0D TIF> >0x28 TIF> >0x0D TIF> >0x28 TIF> >0x0D TIF> >0x28 TIF> >0x0D TIF> >0x21 TIF> >0x0D TIF> >0x28 TIF>Scanning AP map to find all available APs >0x0D TIF> >0x28 TIF> >0x0D TIF> >0x21 TIF> >0x0D TIF> >0x21 TIF> >0x0D TIF> >0x28 TIF> >0x0D TIF> >0x21 TIF> >0x0D TIF> >0x21 TIF>AP[1]: Stopped AP scan as end of AP map has been reachedAP[0]: AHB-AP (IDR: 0x04770025)Iterating through AP map to find AHB-AP to use
 >0x42 TIF> >0x28 TIF> >0x0D TIF> >0x28 TIF> >0x0D TIF> >0x21 TIF> >0x0D TIF> >0x21 TIF> >0x42 TIF> >0x28 TIF> >0x0D TIF> >0x28 TIF> >0x0D TIF> >0x28 TIF> >0x0D TIF> >0x21 TIF> >0x0D TIF> >0x21 TIF>AP[0]: Core foundAP[0]: AHB-AP ROM base: 0xE00FF000 >0x0D TIF> >0x28 TIF> >0x0D TIF> >0x28 TIF> >0x0D TIF> >0x28 TIF> >0x0D TIF> >0x21 TIF> >0x0D TIF> >0x21 TIF>CPUID register: 0x411CD200. Implementer code: 0x41 (ARM)Found Cortex-M23 r1p0, Little endian. -- Max. mem block: 0x00011028
 -- CPU_ReadMem(4 bytes @ 0xE000EDF0) -- CPU_WriteMem(4 bytes @ 0xE000EDF0) -- CPU_ReadMem(4 bytes @ 0xE0002000)FPUnit: 4 code (BP) slots and 0 literal slots -- CPU_ReadMem(4 bytes @ 0xE000EDFC) -- CPU_WriteMem(4 bytes @ 0xE000EDFC) -- CPU_ReadMem(4 bytes @ 0xE0001000) -- CPU_WriteMem(4 bytes @ 0xE0001000) -- CPU_ReadMem(4 bytes @ 0xE000ED88) -- CPU_WriteMem(4 bytes @ 0xE000ED88) -- CPU_ReadMem(4 bytes @ 0xE000ED88) -- CPU_WriteMem(4 bytes @ 0xE000ED88) -- CPU_ReadMem(4 bytes @ 0xE000EFB8)
Security extension: not implementedCoreSight components:ROMTbl[0] @ E00FF000 -- CPU_ReadMem(16 bytes @ 0xE00FF000) -- CPU_ReadMem(16 bytes @ 0xE000EFF0) -- CPU_ReadMem(16 bytes @ 0xE000EFE0) -- CPU_ReadMem(4 bytes @ 0xE000EFBC) -- CPU_ReadMem(4 bytes @ 0xE000EFCC)ROMTbl[0][0]: E000E000, CID: B105900D, PID: 000BBD20 Cortex-M23 -- CPU_ReadMem(16 bytes @ 0xE0001FF0) -- CPU_ReadMem(16 bytes @ 0xE0001FE0) -- CPU_ReadMem(4 bytes @ 0xE0001FBC) -- CPU_ReadMem(4 bytes @ 0xE0001FCC)
ROMTbl[0][1]: E0001000, CID: B105900D, PID: 000BBD20 DWT -- CPU_ReadMem(16 bytes @ 0xE0002FF0) -- CPU_ReadMem(16 bytes @ 0xE0002FE0) -- CPU_ReadMem(4 bytes @ 0xE0002FBC) -- CPU_ReadMem(4 bytes @ 0xE0002FCC)ROMTbl[0][2]: E0002000, CID: B105900D, PID: 000BBD20 FPB -- CPU_ReadMem(16 bytes @ 0xE00FF010) -- CPU_ReadMem(16 bytes @ 0xE00FF020) >0x0D TIF> >0x21 TIF>  returns 0x0BF11477 (0161ms, 0226ms total)
T1613C 047:161 JLINK_GetDLLVersion()  returns 64600 (0000ms, 0226ms total)
T1613C 047:161 JLINK_CORE_GetFound()  returns 0x60100FF (0000ms, 0226ms total)
T1613C 047:161 JLINK_GetDebugInfo(0x100 = JLINKARM_ROM_TABLE_ADDR_INDEX) -- Value=0xE00FF000  returns 0x00 (0000ms, 0226ms total)
T1613C 047:162 JLINK_GetDebugInfo(0x100 = JLINKARM_ROM_TABLE_ADDR_INDEX) -- Value=0xE00FF000  returns 0x00 (0000ms, 0226ms total)
T1613C 047:162 JLINK_GetDebugInfo(0x101 = JLINKARM_DEBUG_INFO_ETM_ADDR_INDEX) -- Value=0x00000000  returns 0x00 (0000ms, 0226ms total)
T1613C 047:162 JLINK_ReadMemEx(0xE0041FF0, 0x0010 Bytes, ..., Flags = 0x02000004) -- CPU_ReadMem(16 bytes @ 0xE0041FF0) - Data: AA AA AA AA AA AA AA AA AA AA AA AA AA AA AA AA  returns 0xFFFFFFFF (0001ms, 0227ms total)
T1613C 047:163 JLINK_GetDebugInfo(0x102 = JLINKARM_DEBUG_INFO_MTB_ADDR_INDEX) -- Value=0x00000000  returns 0x00 (0000ms, 0227ms total)
T1613C 047:163 JLINK_GetDebugInfo(0x103 = JLINKARM_DEBUG_INFO_TPIU_ADDR_INDEX) -- Value=0x00000000  returns 0x00 (0000ms, 0227ms total)
T1613C 047:163 JLINK_ReadMemEx(0xE0040FF0, 0x0010 Bytes, ..., Flags = 0x02000004) -- CPU_ReadMem(16 bytes @ 0xE0040FF0) - Data: AA AA AA AA AA AA AA AA AA AA AA AA AA AA AA AA  returns 0xFFFFFFFF (0000ms, 0227ms total)
T1613C 047:163 JLINK_GetDebugInfo(0x104 = JLINKARM_DEBUG_INFO_ITM_ADDR_INDEX) -- Value=0xE0000000  returns 0x00 (0000ms, 0227ms total)
T1613C 047:163 JLINK_GetDebugInfo(0x105 = JLINKARM_DEBUG_INFO_DWT_ADDR_INDEX) -- Value=0xE0001000  returns 0x00 (0000ms, 0227ms total)
T1613C 047:163 JLINK_GetDebugInfo(0x106 = JLINKARM_DEBUG_INFO_FPB_ADDR_INDEX) -- Value=0xE0002000  returns 0x00 (0000ms, 0227ms total)
T1613C 047:163 JLINK_GetDebugInfo(0x107 = JLINKARM_DEBUG_INFO_NVIC_ADDR_INDEX) -- Value=0xE000E000  returns 0x00 (0000ms, 0227ms total)
T1613C 047:163 JLINK_GetDebugInfo(0x10C = JLINKARM_DEBUG_INFO_DBG_ADDR_INDEX) -- Value=0xE000EDF0  returns 0x00 (0000ms, 0227ms total)
T1613C 047:163 JLINK_GetDebugInfo(0x01 = Unknown) -- Value=0x00000000  returns 0x00 (0001ms, 0228ms total)
T1613C 047:164 JLINK_ReadMemU32(0xE000ED00, 0x0001 Items, ...) -- CPU_ReadMem(4 bytes @ 0xE000ED00) - Data: 00 D2 1C 41  returns 1 (0000ms, 0228ms total)
T1613C 047:164 JLINK_GetDebugInfo(0x10F = JLINKARM_DEBUG_INFO_HAS_CORTEX_M_SECURITY_EXT_INDEX) -- Value=0x00000000  returns 0x00 (0000ms, 0228ms total)
T1613C 047:164 JLINK_SetResetType(JLINKARM_CM3_RESET_TYPE_NORMAL)  returns JLINKARM_CM3_RESET_TYPE_NORMAL (0000ms, 0228ms total)
T1613C 047:164 JLINK_Reset() -- CPU is running -- CPU_WriteMem(4 bytes @ 0xE000EDF0) -- CPU is running -- CPU_WriteMem(4 bytes @ 0xE000EDFC)Reset: Halt core after reset via DEMCR.VC_CORERESET. >0x35 TIF>Reset: Reset device via AIRCR.SYSRESETREQ. -- CPU is running -- CPU_WriteMem(4 bytes @ 0xE000ED0C) >0x0D TIF> >0x28 TIF> -- CPU_ReadMem(4 bytes @ 0xE000EDF0) -- CPU_ReadMem(4 bytes @ 0xE000EDF0) -- CPU is running -- CPU_WriteMem(4 bytes @ 0xE000EDF0) -- CPU is running -- CPU_WriteMem(4 bytes @ 0xE000EDFC)
 -- CPU_ReadMem(4 bytes @ 0xE000EDF0) -- CPU_ReadMem(4 bytes @ 0xE000EE08) -- CPU_WriteMem(4 bytes @ 0xE0002000) -- CPU_ReadMem(4 bytes @ 0xE000EDFC) -- CPU_ReadMem(4 bytes @ 0xE0001000) -- CPU_WriteMem(4 bytes @ 0xE0001000) -- CPU_ReadMem(4 bytes @ 0xE000EE08) (0077ms, 0305ms total)
T1613C 047:241 JLINK_Halt()  returns 0x00 (0001ms, 0306ms total)
T1613C 047:242 JLINK_ReadMemU32(0xE000EDF0, 0x0001 Items, ...) -- CPU_ReadMem(4 bytes @ 0xE000EDF0) - Data: 03 00 03 00  returns 1 (0000ms, 0306ms total)
T1613C 047:242 JLINK_WriteU32(0xE000EDF0, 0xA05F0003) -- CPU_WriteMem(4 bytes @ 0xE000EDF0)  returns 0 (0001ms, 0307ms total)
T1613C 047:243 JLINK_WriteU32(0xE000EDFC, 0x01000000) -- CPU_WriteMem(4 bytes @ 0xE000EDFC)  returns 0 (0001ms, 0308ms total)
T1613C 047:257 JLINK_GetHWStatus(...)  returns 0x00 (0000ms, 0308ms total)
T1613C 047:261 JLINK_GetNumBPUnits(Type = 0xFFFFFF00)  returns 0x04 (0000ms, 0308ms total)
T1613C 047:261 JLINK_GetNumBPUnits(Type = 0xF0)  returns 0x2000 (0000ms, 0308ms total)
T1613C 047:261 JLINK_GetNumWPUnits()  returns 0x02 (0000ms, 0308ms total)
T1613C 047:266 JLINK_GetSpeed()  returns 0x3E8 (0000ms, 0308ms total)
T1613C 047:270 JLINK_ReadMemU32(0xE000E004, 0x0001 Items, ...) -- CPU_ReadMem(4 bytes @ 0xE000E004) - Data: 01 00 00 00  returns 1 (0001ms, 0309ms total)
T1613C 047:271 JLINK_ReadMemU32(0xE000E004, 0x0001 Items, ...) -- CPU_ReadMem(4 bytes @ 0xE000E004) - Data: 01 00 00 00  returns 1 (0000ms, 0309ms total)
T1613C 047:271 JLINK_Halt()  returns 0x00 (0000ms, 0309ms total)
T1613C 047:271 JLINK_IsHalted()  returns TRUE (0000ms, 0309ms total)
T1613C 047:275 JLINK_WriteMem(0x20000000, 0x0290 Bytes, ...) - Data: 00 BE 0A E0 0D 78 2D 06 68 40 08 24 40 00 00 D3 ... -- CPU_WriteMem(656 bytes @ 0x20000000)  returns 0x290 (0009ms, 0318ms total)
T1613C 047:284 JLINK_WriteReg(R0, 0x08000000) -- CPU_ReadMem(4 bytes @ 0xE000EE08)  returns 0x00 (0000ms, 0318ms total)
T1613C 047:284 JLINK_WriteReg(R1, 0x00B71B00)  returns 0x00 (0000ms, 0318ms total)
T1613C 047:284 JLINK_WriteReg(R2, 0x00000001)  returns 0x00 (0000ms, 0318ms total)
T1613C 047:284 JLINK_WriteReg(R3, 0x00000000)  returns 0x00 (0000ms, 0318ms total)
T1613C 047:284 JLINK_WriteReg(R4, 0x00000000)  returns 0x00 (0000ms, 0318ms total)
T1613C 047:284 JLINK_WriteReg(R5, 0x00000000)  returns 0x00 (0000ms, 0318ms total)
T1613C 047:284 JLINK_WriteReg(R6, 0x00000000)  returns 0x00 (0001ms, 0319ms total)
T1613C 047:285 JLINK_WriteReg(R7, 0x00000000)  returns 0x00 (0000ms, 0319ms total)
T1613C 047:285 JLINK_WriteReg(R8, 0x00000000)  returns 0x00 (0000ms, 0319ms total)
T1613C 047:285 JLINK_WriteReg(R9, 0x2000028C)  returns 0x00 (0000ms, 0319ms total)
T1613C 047:285 JLINK_WriteReg(R10, 0x00000000)  returns 0x00 (0000ms, 0319ms total)
T1613C 047:285 JLINK_WriteReg(R11, 0x00000000)  returns 0x00 (0000ms, 0319ms total)
T1613C 047:285 JLINK_WriteReg(R12, 0x00000000)  returns 0x00 (0000ms, 0319ms total)
T1613C 047:285 JLINK_WriteReg(R13 (SP), 0x20000800)  returns 0x00 (0000ms, 0319ms total)
T1613C 047:285 JLINK_WriteReg(R14, 0x20000001)  returns 0x00 (0000ms, 0319ms total)
T1613C 047:285 JLINK_WriteReg(R15 (PC), 0x20000038)  returns 0x00 (0000ms, 0319ms total)
T1613C 047:285 JLINK_WriteReg(XPSR, 0x01000000)  returns 0x00 (0000ms, 0319ms total)
T1613C 047:285 JLINK_WriteReg(MSP, 0x20000800)  returns 0x00 (0000ms, 0319ms total)
T1613C 047:285 JLINK_WriteReg(PSP, 0x20000800)  returns 0x00 (0000ms, 0319ms total)
T1613C 047:285 JLINK_WriteReg(CFBP, 0x00000000)  returns 0x00 (0000ms, 0319ms total)
T1613C 047:285 JLINK_SetBPEx(Addr = 0x20000000, Type = 0xFFFFFFF2)  returns 0x00000001 (0000ms, 0319ms total)
T1613C 047:285 JLINK_Go() -- CPU_WriteMem(4 bytes @ 0xE0002000) -- CPU_ReadMem(4 bytes @ 0xE0001000) -- CPU_WriteMem(4 bytes @ 0xE0001000) -- CPU_WriteMem(4 bytes @ 0xE0002008) -- CPU_WriteMem(4 bytes @ 0xE000200C) -- CPU_WriteMem(4 bytes @ 0xE0002010) -- CPU_WriteMem(4 bytes @ 0xE0002014) -- CPU_WriteMem(4 bytes @ 0xE0001004) (0008ms, 0327ms total)
T1613C 047:294 JLINK_IsHalted()  returns TRUE (0005ms, 0333ms total)
T1613C 047:299 JLINK_ReadReg(R15 (PC)) -- CPU_ReadMem(4 bytes @ 0xE000EE08)  returns 0x20000000 (0001ms, 0329ms total)
T1613C 047:300 JLINK_ClrBPEx(BPHandle = 0x00000001)  returns 0x00 (0000ms, 0329ms total)
T1613C 047:300 JLINK_ReadReg(R0)  returns 0x00000000 (0000ms, 0329ms total)
T1613C 047:302 JLINK_WriteReg(R0, 0x08002800)  returns 0x00 (0000ms, 0329ms total)
T1613C 047:302 JLINK_WriteReg(R1, 0x00000400)  returns 0x00 (0000ms, 0329ms total)
T1613C 047:302 JLINK_WriteReg(R2, 0x000000FF)  returns 0x00 (0000ms, 0329ms total)
T1613C 047:302 JLINK_WriteReg(R3, 0x00000000)  returns 0x00 (0000ms, 0329ms total)
T1613C 047:302 JLINK_WriteReg(R4, 0x00000000)  returns 0x00 (0000ms, 0329ms total)
T1613C 047:302 JLINK_WriteReg(R5, 0x00000000)  returns 0x00 (0000ms, 0329ms total)
T1613C 047:302 JLINK_WriteReg(R6, 0x00000000)  returns 0x00 (0000ms, 0329ms total)
T1613C 047:302 JLINK_WriteReg(R7, 0x00000000)  returns 0x00 (0000ms, 0329ms total)
T1613C 047:302 JLINK_WriteReg(R8, 0x00000000)  returns 0x00 (0000ms, 0329ms total)
T1613C 047:302 JLINK_WriteReg(R9, 0x2000028C)  returns 0x00 (0000ms, 0329ms total)
T1613C 047:302 JLINK_WriteReg(R10, 0x00000000)  returns 0x00 (0000ms, 0329ms total)
T1613C 047:302 JLINK_WriteReg(R11, 0x00000000)  returns 0x00 (0000ms, 0329ms total)
T1613C 047:302 JLINK_WriteReg(R12, 0x00000000)  returns 0x00 (0000ms, 0329ms total)
T1613C 047:302 JLINK_WriteReg(R13 (SP), 0x20000800)  returns 0x00 (0000ms, 0329ms total)
T1613C 047:302 JLINK_WriteReg(R14, 0x20000001)  returns 0x00 (0000ms, 0329ms total)
T1613C 047:302 JLINK_WriteReg(R15 (PC), 0x20000020)  returns 0x00 (0000ms, 0329ms total)
T1613C 047:302 JLINK_WriteReg(XPSR, 0x01000000)  returns 0x00 (0000ms, 0329ms total)
T1613C 047:302 JLINK_WriteReg(MSP, 0x20000800)  returns 0x00 (0000ms, 0329ms total)
T1613C 047:302 JLINK_WriteReg(PSP, 0x20000800)  returns 0x00 (0000ms, 0329ms total)
T1613C 047:303 JLINK_WriteReg(CFBP, 0x00000000)  returns 0x00 (0000ms, 0329ms total)
T1613C 047:303 JLINK_SetBPEx(Addr = 0x20000000, Type = 0xFFFFFFF2)  returns 0x00000002 (0000ms, 0329ms total)
T1613C 047:303 JLINK_Go() -- CPU_WriteMem(4 bytes @ 0xE0002000) -- CPU_ReadMem(4 bytes @ 0xE0001000) -- CPU_WriteMem(4 bytes @ 0xE0001000) (0006ms, 0335ms total)
T1613C 047:309 JLINK_IsHalted()  returns TRUE (0006ms, 0341ms total)
T1613C 047:315 JLINK_ReadReg(R15 (PC)) -- CPU_ReadMem(4 bytes @ 0xE000EE08)  returns 0x20000000 (0001ms, 0336ms total)
T1613C 047:316 JLINK_ClrBPEx(BPHandle = 0x00000002)  returns 0x00 (0000ms, 0336ms total)
T1613C 047:316 JLINK_ReadReg(R0)  returns 0x00000001 (0000ms, 0336ms total)
T1613C 047:316 JLINK_WriteReg(R0, 0x08002800)  returns 0x00 (0000ms, 0336ms total)
T1613C 047:316 JLINK_WriteReg(R1, 0x00000400)  returns 0x00 (0000ms, 0336ms total)
T1613C 047:316 JLINK_WriteReg(R2, 0x000000FF)  returns 0x00 (0000ms, 0336ms total)
T1613C 047:316 JLINK_WriteReg(R3, 0x00000000)  returns 0x00 (0000ms, 0336ms total)
T1613C 047:316 JLINK_WriteReg(R4, 0x00000000)  returns 0x00 (0000ms, 0336ms total)
T1613C 047:316 JLINK_WriteReg(R5, 0x00000000)  returns 0x00 (0000ms, 0336ms total)
T1613C 047:316 JLINK_WriteReg(R6, 0x00000000)  returns 0x00 (0000ms, 0336ms total)
T1613C 047:316 JLINK_WriteReg(R7, 0x00000000)  returns 0x00 (0000ms, 0336ms total)
T1613C 047:316 JLINK_WriteReg(R8, 0x00000000)  returns 0x00 (0000ms, 0336ms total)
T1613C 047:316 JLINK_WriteReg(R9, 0x2000028C)  returns 0x00 (0000ms, 0336ms total)
T1613C 047:316 JLINK_WriteReg(R10, 0x00000000)  returns 0x00 (0000ms, 0336ms total)
T1613C 047:316 JLINK_WriteReg(R11, 0x00000000)  returns 0x00 (0000ms, 0336ms total)
T1613C 047:316 JLINK_WriteReg(R12, 0x00000000)  returns 0x00 (0000ms, 0336ms total)
T1613C 047:316 JLINK_WriteReg(R13 (SP), 0x20000800)  returns 0x00 (0000ms, 0336ms total)
T1613C 047:316 JLINK_WriteReg(R14, 0x20000001)  returns 0x00 (0000ms, 0336ms total)
T1613C 047:316 JLINK_WriteReg(R15 (PC), 0x20000128)  returns 0x00 (0000ms, 0336ms total)
T1613C 047:316 JLINK_WriteReg(XPSR, 0x01000000)  returns 0x00 (0000ms, 0336ms total)
T1613C 047:316 JLINK_WriteReg(MSP, 0x20000800)  returns 0x00 (0000ms, 0336ms total)
T1613C 047:316 JLINK_WriteReg(PSP, 0x20000800)  returns 0x00 (0000ms, 0336ms total)
T1613C 047:316 JLINK_WriteReg(CFBP, 0x00000000)  returns 0x00 (0000ms, 0336ms total)
T1613C 047:316 JLINK_SetBPEx(Addr = 0x20000000, Type = 0xFFFFFFF2)  returns 0x00000003 (0000ms, 0336ms total)
T1613C 047:316 JLINK_Go() -- CPU_WriteMem(4 bytes @ 0xE0002000) -- CPU_ReadMem(4 bytes @ 0xE0001000) -- CPU_WriteMem(4 bytes @ 0xE0001000) (0007ms, 0343ms total)
T1613C 047:323 JLINK_IsHalted()  returns FALSE (0000ms, 0343ms total)
T1613C 047:360 JLINK_IsHalted()  returns TRUE (0006ms, 0349ms total)
T1613C 047:366 JLINK_ReadReg(R15 (PC)) -- CPU_ReadMem(4 bytes @ 0xE000EE08)  returns 0x20000000 (0000ms, 0343ms total)
T1613C 047:366 JLINK_ClrBPEx(BPHandle = 0x00000003)  returns 0x00 (0000ms, 0343ms total)
T1613C 047:366 JLINK_ReadReg(R0)  returns 0x00000000 (0000ms, 0343ms total)
T1613C 047:366 JLINK_WriteReg(R0, 0x08002C00)  returns 0x00 (0000ms, 0343ms total)
T1613C 047:366 JLINK_WriteReg(R1, 0x00000400)  returns 0x00 (0000ms, 0343ms total)
T1613C 047:366 JLINK_WriteReg(R2, 0x000000FF)  returns 0x00 (0000ms, 0343ms total)
T1613C 047:366 JLINK_WriteReg(R3, 0x00000000)  returns 0x00 (0000ms, 0343ms total)
T1613C 047:366 JLINK_WriteReg(R4, 0x00000000)  returns 0x00 (0000ms, 0343ms total)
T1613C 047:366 JLINK_WriteReg(R5, 0x00000000)  returns 0x00 (0000ms, 0343ms total)
T1613C 047:366 JLINK_WriteReg(R6, 0x00000000)  returns 0x00 (0000ms, 0343ms total)
T1613C 047:366 JLINK_WriteReg(R7, 0x00000000)  returns 0x00 (0002ms, 0345ms total)
T1613C 047:368 JLINK_WriteReg(R8, 0x00000000)  returns 0x00 (0000ms, 0345ms total)
T1613C 047:368 JLINK_WriteReg(R9, 0x2000028C)  returns 0x00 (0000ms, 0345ms total)
T1613C 047:368 JLINK_WriteReg(R10, 0x00000000)  returns 0x00 (0000ms, 0345ms total)
T1613C 047:368 JLINK_WriteReg(R11, 0x00000000)  returns 0x00 (0000ms, 0345ms total)
T1613C 047:368 JLINK_WriteReg(R12, 0x00000000)  returns 0x00 (0000ms, 0345ms total)
T1613C 047:368 JLINK_WriteReg(R13 (SP), 0x20000800)  returns 0x00 (0000ms, 0345ms total)
T1613C 047:368 JLINK_WriteReg(R14, 0x20000001)  returns 0x00 (0000ms, 0345ms total)
T1613C 047:368 JLINK_WriteReg(R15 (PC), 0x20000020)  returns 0x00 (0000ms, 0345ms total)
T1613C 047:368 JLINK_WriteReg(XPSR, 0x01000000)  returns 0x00 (0000ms, 0345ms total)
T1613C 047:368 JLINK_WriteReg(MSP, 0x20000800)  returns 0x00 (0000ms, 0345ms total)
T1613C 047:368 JLINK_WriteReg(PSP, 0x20000800)  returns 0x00 (0000ms, 0345ms total)
T1613C 047:368 JLINK_WriteReg(CFBP, 0x00000000)  returns 0x00 (0000ms, 0345ms total)
T1613C 047:368 JLINK_SetBPEx(Addr = 0x20000000, Type = 0xFFFFFFF2)  returns 0x00000004 (0000ms, 0345ms total)
T1613C 047:368 JLINK_Go() -- CPU_WriteMem(4 bytes @ 0xE0002000) -- CPU_ReadMem(4 bytes @ 0xE0001000) -- CPU_WriteMem(4 bytes @ 0xE0001000) (0007ms, 0352ms total)
T1613C 047:375 JLINK_IsHalted()  returns TRUE (0006ms, 0358ms total)
T1613C 047:381 JLINK_ReadReg(R15 (PC)) -- CPU_ReadMem(4 bytes @ 0xE000EE08)  returns 0x20000000 (0000ms, 0352ms total)
T1613C 047:381 JLINK_ClrBPEx(BPHandle = 0x00000004)  returns 0x00 (0000ms, 0352ms total)
T1613C 047:381 JLINK_ReadReg(R0)  returns 0x00000001 (0000ms, 0352ms total)
T1613C 047:381 JLINK_WriteReg(R0, 0x08002C00)  returns 0x00 (0000ms, 0352ms total)
T1613C 047:381 JLINK_WriteReg(R1, 0x00000400)  returns 0x00 (0000ms, 0352ms total)
T1613C 047:381 JLINK_WriteReg(R2, 0x000000FF)  returns 0x00 (0000ms, 0352ms total)
T1613C 047:381 JLINK_WriteReg(R3, 0x00000000)  returns 0x00 (0000ms, 0352ms total)
T1613C 047:381 JLINK_WriteReg(R4, 0x00000000)  returns 0x00 (0000ms, 0352ms total)
T1613C 047:381 JLINK_WriteReg(R5, 0x00000000)  returns 0x00 (0000ms, 0352ms total)
T1613C 047:381 JLINK_WriteReg(R6, 0x00000000)  returns 0x00 (0000ms, 0352ms total)
T1613C 047:381 JLINK_WriteReg(R7, 0x00000000)  returns 0x00 (0000ms, 0352ms total)
T1613C 047:381 JLINK_WriteReg(R8, 0x00000000)  returns 0x00 (0000ms, 0352ms total)
T1613C 047:381 JLINK_WriteReg(R9, 0x2000028C)  returns 0x00 (0000ms, 0352ms total)
T1613C 047:381 JLINK_WriteReg(R10, 0x00000000)  returns 0x00 (0000ms, 0352ms total)
T1613C 047:381 JLINK_WriteReg(R11, 0x00000000)  returns 0x00 (0000ms, 0352ms total)
T1613C 047:381 JLINK_WriteReg(R12, 0x00000000)  returns 0x00 (0000ms, 0352ms total)
T1613C 047:381 JLINK_WriteReg(R13 (SP), 0x20000800)  returns 0x00 (0000ms, 0352ms total)
T1613C 047:381 JLINK_WriteReg(R14, 0x20000001)  returns 0x00 (0000ms, 0352ms total)
T1613C 047:381 JLINK_WriteReg(R15 (PC), 0x20000128)  returns 0x00 (0000ms, 0352ms total)
T1613C 047:381 JLINK_WriteReg(XPSR, 0x01000000)  returns 0x00 (0000ms, 0352ms total)
T1613C 047:381 JLINK_WriteReg(MSP, 0x20000800)  returns 0x00 (0000ms, 0352ms total)
T1613C 047:381 JLINK_WriteReg(PSP, 0x20000800)  returns 0x00 (0000ms, 0352ms total)
T1613C 047:381 JLINK_WriteReg(CFBP, 0x00000000)  returns 0x00 (0000ms, 0352ms total)
T1613C 047:381 JLINK_SetBPEx(Addr = 0x20000000, Type = 0xFFFFFFF2)  returns 0x00000005 (0000ms, 0352ms total)
T1613C 047:381 JLINK_Go() -- CPU_WriteMem(4 bytes @ 0xE0002000) -- CPU_ReadMem(4 bytes @ 0xE0001000) -- CPU_WriteMem(4 bytes @ 0xE0001000) (0008ms, 0360ms total)
T1613C 047:389 JLINK_IsHalted()  returns FALSE (0000ms, 0360ms total)
T1613C 047:391 JLINK_IsHalted()  returns FALSE (0000ms, 0360ms total)
T1613C 047:394 JLINK_IsHalted()  returns TRUE (0006ms, 0366ms total)
T1613C 047:400 JLINK_ReadReg(R15 (PC)) -- CPU_ReadMem(4 bytes @ 0xE000EE08)  returns 0x20000000 (0000ms, 0360ms total)
T1613C 047:400 JLINK_ClrBPEx(BPHandle = 0x00000005)  returns 0x00 (0000ms, 0360ms total)
T1613C 047:400 JLINK_ReadReg(R0)  returns 0x00000000 (0000ms, 0360ms total)
T1613C 047:401 JLINK_WriteReg(R0, 0x08003000)  returns 0x00 (0000ms, 0360ms total)
T1613C 047:401 JLINK_WriteReg(R1, 0x00000400)  returns 0x00 (0000ms, 0360ms total)
T1613C 047:401 JLINK_WriteReg(R2, 0x000000FF)  returns 0x00 (0000ms, 0360ms total)
T1613C 047:401 JLINK_WriteReg(R3, 0x00000000)  returns 0x00 (0000ms, 0360ms total)
T1613C 047:401 JLINK_WriteReg(R4, 0x00000000)  returns 0x00 (0000ms, 0360ms total)
T1613C 047:401 JLINK_WriteReg(R5, 0x00000000)  returns 0x00 (0000ms, 0360ms total)
T1613C 047:401 JLINK_WriteReg(R6, 0x00000000)  returns 0x00 (0000ms, 0360ms total)
T1613C 047:401 JLINK_WriteReg(R7, 0x00000000)  returns 0x00 (0000ms, 0360ms total)
T1613C 047:401 JLINK_WriteReg(R8, 0x00000000)  returns 0x00 (0000ms, 0360ms total)
T1613C 047:401 JLINK_WriteReg(R9, 0x2000028C)  returns 0x00 (0000ms, 0360ms total)
T1613C 047:401 JLINK_WriteReg(R10, 0x00000000)  returns 0x00 (0000ms, 0360ms total)
T1613C 047:401 JLINK_WriteReg(R11, 0x00000000)  returns 0x00 (0000ms, 0360ms total)
T1613C 047:401 JLINK_WriteReg(R12, 0x00000000)  returns 0x00 (0000ms, 0360ms total)
T1613C 047:401 JLINK_WriteReg(R13 (SP), 0x20000800)  returns 0x00 (0000ms, 0360ms total)
T1613C 047:401 JLINK_WriteReg(R14, 0x20000001)  returns 0x00 (0000ms, 0360ms total)
T1613C 047:401 JLINK_WriteReg(R15 (PC), 0x20000020)  returns 0x00 (0000ms, 0360ms total)
T1613C 047:401 JLINK_WriteReg(XPSR, 0x01000000)  returns 0x00 (0000ms, 0360ms total)
T1613C 047:401 JLINK_WriteReg(MSP, 0x20000800)  returns 0x00 (0000ms, 0360ms total)
T1613C 047:401 JLINK_WriteReg(PSP, 0x20000800)  returns 0x00 (0000ms, 0360ms total)
T1613C 047:401 JLINK_WriteReg(CFBP, 0x00000000)  returns 0x00 (0000ms, 0360ms total)
T1613C 047:401 JLINK_SetBPEx(Addr = 0x20000000, Type = 0xFFFFFFF2)  returns 0x00000006 (0000ms, 0360ms total)
T1613C 047:401 JLINK_Go() -- CPU_WriteMem(4 bytes @ 0xE0002000) -- CPU_ReadMem(4 bytes @ 0xE0001000) -- CPU_WriteMem(4 bytes @ 0xE0001000) (0007ms, 0367ms total)
T1613C 047:408 JLINK_IsHalted()  returns TRUE (0006ms, 0373ms total)
T1613C 047:414 JLINK_ReadReg(R15 (PC)) -- CPU_ReadMem(4 bytes @ 0xE000EE08)  returns 0x20000000 (0000ms, 0367ms total)
T1613C 047:414 JLINK_ClrBPEx(BPHandle = 0x00000006)  returns 0x00 (0000ms, 0367ms total)
T1613C 047:414 JLINK_ReadReg(R0)  returns 0x00000001 (0000ms, 0367ms total)
T1613C 047:414 JLINK_WriteReg(R0, 0x08003000)  returns 0x00 (0000ms, 0367ms total)
T1613C 047:414 JLINK_WriteReg(R1, 0x00000400)  returns 0x00 (0000ms, 0367ms total)
T1613C 047:414 JLINK_WriteReg(R2, 0x000000FF)  returns 0x00 (0000ms, 0367ms total)
T1613C 047:414 JLINK_WriteReg(R3, 0x00000000)  returns 0x00 (0000ms, 0367ms total)
T1613C 047:414 JLINK_WriteReg(R4, 0x00000000)  returns 0x00 (0000ms, 0367ms total)
T1613C 047:414 JLINK_WriteReg(R5, 0x00000000)  returns 0x00 (0000ms, 0367ms total)
T1613C 047:414 JLINK_WriteReg(R6, 0x00000000)  returns 0x00 (0000ms, 0367ms total)
T1613C 047:414 JLINK_WriteReg(R7, 0x00000000)  returns 0x00 (0000ms, 0367ms total)
T1613C 047:414 JLINK_WriteReg(R8, 0x00000000)  returns 0x00 (0000ms, 0367ms total)
T1613C 047:414 JLINK_WriteReg(R9, 0x2000028C)  returns 0x00 (0001ms, 0368ms total)
T1613C 047:415 JLINK_WriteReg(R10, 0x00000000)  returns 0x00 (0000ms, 0368ms total)
T1613C 047:415 JLINK_WriteReg(R11, 0x00000000)  returns 0x00 (0000ms, 0368ms total)
T1613C 047:415 JLINK_WriteReg(R12, 0x00000000)  returns 0x00 (0000ms, 0368ms total)
T1613C 047:415 JLINK_WriteReg(R13 (SP), 0x20000800)  returns 0x00 (0000ms, 0368ms total)
T1613C 047:415 JLINK_WriteReg(R14, 0x20000001)  returns 0x00 (0000ms, 0368ms total)
T1613C 047:415 JLINK_WriteReg(R15 (PC), 0x20000128)  returns 0x00 (0000ms, 0368ms total)
T1613C 047:415 JLINK_WriteReg(XPSR, 0x01000000)  returns 0x00 (0000ms, 0368ms total)
T1613C 047:415 JLINK_WriteReg(MSP, 0x20000800)  returns 0x00 (0000ms, 0368ms total)
T1613C 047:415 JLINK_WriteReg(PSP, 0x20000800)  returns 0x00 (0000ms, 0368ms total)
T1613C 047:415 JLINK_WriteReg(CFBP, 0x00000000)  returns 0x00 (0000ms, 0368ms total)
T1613C 047:415 JLINK_SetBPEx(Addr = 0x20000000, Type = 0xFFFFFFF2)  returns 0x00000007 (0000ms, 0368ms total)
T1613C 047:415 JLINK_Go() -- CPU_WriteMem(4 bytes @ 0xE0002000) -- CPU_ReadMem(4 bytes @ 0xE0001000) -- CPU_WriteMem(4 bytes @ 0xE0001000) (0007ms, 0375ms total)
T1613C 047:422 JLINK_IsHalted()  returns FALSE (0000ms, 0375ms total)
T1613C 047:424 JLINK_IsHalted()  returns FALSE (0000ms, 0375ms total)
T1613C 047:426 JLINK_IsHalted()  returns TRUE (0006ms, 0381ms total)
T1613C 047:432 JLINK_ReadReg(R15 (PC)) -- CPU_ReadMem(4 bytes @ 0xE000EE08)  returns 0x20000000 (0000ms, 0375ms total)
T1613C 047:432 JLINK_ClrBPEx(BPHandle = 0x00000007)  returns 0x00 (0000ms, 0375ms total)
T1613C 047:432 JLINK_ReadReg(R0)  returns 0x00000000 (0000ms, 0375ms total)
T1613C 047:433 JLINK_WriteReg(R0, 0x08003400)  returns 0x00 (0000ms, 0375ms total)
T1613C 047:433 JLINK_WriteReg(R1, 0x00000400)  returns 0x00 (0000ms, 0375ms total)
T1613C 047:433 JLINK_WriteReg(R2, 0x000000FF)  returns 0x00 (0000ms, 0375ms total)
T1613C 047:433 JLINK_WriteReg(R3, 0x00000000)  returns 0x00 (0001ms, 0376ms total)
T1613C 047:434 JLINK_WriteReg(R4, 0x00000000)  returns 0x00 (0000ms, 0376ms total)
T1613C 047:434 JLINK_WriteReg(R5, 0x00000000)  returns 0x00 (0000ms, 0376ms total)
T1613C 047:434 JLINK_WriteReg(R6, 0x00000000)  returns 0x00 (0000ms, 0376ms total)
T1613C 047:434 JLINK_WriteReg(R7, 0x00000000)  returns 0x00 (0000ms, 0376ms total)
T1613C 047:434 JLINK_WriteReg(R8, 0x00000000)  returns 0x00 (0000ms, 0376ms total)
T1613C 047:434 JLINK_WriteReg(R9, 0x2000028C)  returns 0x00 (0000ms, 0376ms total)
T1613C 047:434 JLINK_WriteReg(R10, 0x00000000)  returns 0x00 (0000ms, 0376ms total)
T1613C 047:434 JLINK_WriteReg(R11, 0x00000000)  returns 0x00 (0000ms, 0376ms total)
T1613C 047:434 JLINK_WriteReg(R12, 0x00000000)  returns 0x00 (0000ms, 0376ms total)
T1613C 047:434 JLINK_WriteReg(R13 (SP), 0x20000800)  returns 0x00 (0000ms, 0376ms total)
T1613C 047:434 JLINK_WriteReg(R14, 0x20000001)  returns 0x00 (0000ms, 0376ms total)
T1613C 047:434 JLINK_WriteReg(R15 (PC), 0x20000020)  returns 0x00 (0000ms, 0376ms total)
T1613C 047:434 JLINK_WriteReg(XPSR, 0x01000000)  returns 0x00 (0000ms, 0376ms total)
T1613C 047:434 JLINK_WriteReg(MSP, 0x20000800)  returns 0x00 (0000ms, 0376ms total)
T1613C 047:434 JLINK_WriteReg(PSP, 0x20000800)  returns 0x00 (0000ms, 0376ms total)
T1613C 047:434 JLINK_WriteReg(CFBP, 0x00000000)  returns 0x00 (0000ms, 0376ms total)
T1613C 047:434 JLINK_SetBPEx(Addr = 0x20000000, Type = 0xFFFFFFF2)  returns 0x00000008 (0000ms, 0376ms total)
T1613C 047:434 JLINK_Go() -- CPU_WriteMem(4 bytes @ 0xE0002000) -- CPU_ReadMem(4 bytes @ 0xE0001000) -- CPU_WriteMem(4 bytes @ 0xE0001000) (0007ms, 0383ms total)
T1613C 047:441 JLINK_IsHalted()  returns TRUE (0006ms, 0389ms total)
T1613C 047:447 JLINK_ReadReg(R15 (PC)) -- CPU_ReadMem(4 bytes @ 0xE000EE08)  returns 0x20000000 (0001ms, 0384ms total)
T1613C 047:448 JLINK_ClrBPEx(BPHandle = 0x00000008)  returns 0x00 (0000ms, 0384ms total)
T1613C 047:448 JLINK_ReadReg(R0)  returns 0x00000001 (0000ms, 0384ms total)
T1613C 047:448 JLINK_WriteReg(R0, 0x08003400)  returns 0x00 (0000ms, 0384ms total)
T1613C 047:448 JLINK_WriteReg(R1, 0x00000400)  returns 0x00 (0000ms, 0384ms total)
T1613C 047:448 JLINK_WriteReg(R2, 0x000000FF)  returns 0x00 (0000ms, 0384ms total)
T1613C 047:448 JLINK_WriteReg(R3, 0x00000000)  returns 0x00 (0000ms, 0384ms total)
T1613C 047:448 JLINK_WriteReg(R4, 0x00000000)  returns 0x00 (0000ms, 0384ms total)
T1613C 047:448 JLINK_WriteReg(R5, 0x00000000)  returns 0x00 (0000ms, 0384ms total)
T1613C 047:448 JLINK_WriteReg(R6, 0x00000000)  returns 0x00 (0000ms, 0384ms total)
T1613C 047:448 JLINK_WriteReg(R7, 0x00000000)  returns 0x00 (0000ms, 0384ms total)
T1613C 047:448 JLINK_WriteReg(R8, 0x00000000)  returns 0x00 (0000ms, 0384ms total)
T1613C 047:448 JLINK_WriteReg(R9, 0x2000028C)  returns 0x00 (0000ms, 0384ms total)
T1613C 047:448 JLINK_WriteReg(R10, 0x00000000)  returns 0x00 (0000ms, 0384ms total)
T1613C 047:448 JLINK_WriteReg(R11, 0x00000000)  returns 0x00 (0001ms, 0385ms total)
T1613C 047:449 JLINK_WriteReg(R12, 0x00000000)  returns 0x00 (0000ms, 0385ms total)
T1613C 047:449 JLINK_WriteReg(R13 (SP), 0x20000800)  returns 0x00 (0000ms, 0385ms total)
T1613C 047:449 JLINK_WriteReg(R14, 0x20000001)  returns 0x00 (0000ms, 0385ms total)
T1613C 047:449 JLINK_WriteReg(R15 (PC), 0x20000128)  returns 0x00 (0000ms, 0385ms total)
T1613C 047:449 JLINK_WriteReg(XPSR, 0x01000000)  returns 0x00 (0000ms, 0385ms total)
T1613C 047:449 JLINK_WriteReg(MSP, 0x20000800)  returns 0x00 (0000ms, 0385ms total)
T1613C 047:449 JLINK_WriteReg(PSP, 0x20000800)  returns 0x00 (0000ms, 0385ms total)
T1613C 047:449 JLINK_WriteReg(CFBP, 0x00000000)  returns 0x00 (0000ms, 0385ms total)
T1613C 047:449 JLINK_SetBPEx(Addr = 0x20000000, Type = 0xFFFFFFF2)  returns 0x00000009 (0000ms, 0385ms total)
T1613C 047:449 JLINK_Go() -- CPU_WriteMem(4 bytes @ 0xE0002000) -- CPU_ReadMem(4 bytes @ 0xE0001000) -- CPU_WriteMem(4 bytes @ 0xE0001000) (0007ms, 0392ms total)
T1613C 047:456 JLINK_IsHalted()  returns FALSE (0001ms, 0393ms total)
T1613C 047:460 JLINK_IsHalted()  returns TRUE (0006ms, 0398ms total)
T1613C 047:466 JLINK_ReadReg(R15 (PC)) -- CPU_ReadMem(4 bytes @ 0xE000EE08)  returns 0x20000000 (0000ms, 0392ms total)
T1613C 047:466 JLINK_ClrBPEx(BPHandle = 0x00000009)  returns 0x00 (0000ms, 0392ms total)
T1613C 047:466 JLINK_ReadReg(R0)  returns 0x00000000 (0000ms, 0392ms total)
T1613C 047:468 JLINK_WriteReg(R0, 0x08003800)  returns 0x00 (0000ms, 0392ms total)
T1613C 047:468 JLINK_WriteReg(R1, 0x00000400)  returns 0x00 (0000ms, 0392ms total)
T1613C 047:468 JLINK_WriteReg(R2, 0x000000FF)  returns 0x00 (0000ms, 0392ms total)
T1613C 047:468 JLINK_WriteReg(R3, 0x00000000)  returns 0x00 (0000ms, 0392ms total)
T1613C 047:468 JLINK_WriteReg(R4, 0x00000000)  returns 0x00 (0000ms, 0392ms total)
T1613C 047:468 JLINK_WriteReg(R5, 0x00000000)  returns 0x00 (0000ms, 0392ms total)
T1613C 047:468 JLINK_WriteReg(R6, 0x00000000)  returns 0x00 (0000ms, 0392ms total)
T1613C 047:468 JLINK_WriteReg(R7, 0x00000000)  returns 0x00 (0000ms, 0392ms total)
T1613C 047:468 JLINK_WriteReg(R8, 0x00000000)  returns 0x00 (0001ms, 0393ms total)
T1613C 047:469 JLINK_WriteReg(R9, 0x2000028C)  returns 0x00 (0000ms, 0393ms total)
T1613C 047:469 JLINK_WriteReg(R10, 0x00000000)  returns 0x00 (0000ms, 0393ms total)
T1613C 047:469 JLINK_WriteReg(R11, 0x00000000)  returns 0x00 (0000ms, 0393ms total)
T1613C 047:469 JLINK_WriteReg(R12, 0x00000000)  returns 0x00 (0000ms, 0393ms total)
T1613C 047:469 JLINK_WriteReg(R13 (SP), 0x20000800)  returns 0x00 (0000ms, 0393ms total)
T1613C 047:469 JLINK_WriteReg(R14, 0x20000001)  returns 0x00 (0000ms, 0393ms total)
T1613C 047:469 JLINK_WriteReg(R15 (PC), 0x20000020)  returns 0x00 (0000ms, 0393ms total)
T1613C 047:469 JLINK_WriteReg(XPSR, 0x01000000)  returns 0x00 (0000ms, 0393ms total)
T1613C 047:469 JLINK_WriteReg(MSP, 0x20000800)  returns 0x00 (0000ms, 0393ms total)
T1613C 047:469 JLINK_WriteReg(PSP, 0x20000800)  returns 0x00 (0000ms, 0393ms total)
T1613C 047:469 JLINK_WriteReg(CFBP, 0x00000000)  returns 0x00 (0000ms, 0393ms total)
T1613C 047:469 JLINK_SetBPEx(Addr = 0x20000000, Type = 0xFFFFFFF2)  returns 0x0000000A (0000ms, 0393ms total)
T1613C 047:469 JLINK_Go() -- CPU_WriteMem(4 bytes @ 0xE0002000) -- CPU_ReadMem(4 bytes @ 0xE0001000) -- CPU_WriteMem(4 bytes @ 0xE0001000) (0007ms, 0400ms total)
T1613C 047:476 JLINK_IsHalted()  returns TRUE (0006ms, 0406ms total)
T1613C 047:482 JLINK_ReadReg(R15 (PC)) -- CPU_ReadMem(4 bytes @ 0xE000EE08)  returns 0x20000000 (0001ms, 0401ms total)
T1613C 047:483 JLINK_ClrBPEx(BPHandle = 0x0000000A)  returns 0x00 (0000ms, 0401ms total)
T1613C 047:483 JLINK_ReadReg(R0)  returns 0x00000001 (0000ms, 0401ms total)
T1613C 047:483 JLINK_WriteReg(R0, 0x08003800)  returns 0x00 (0000ms, 0401ms total)
T1613C 047:483 JLINK_WriteReg(R1, 0x00000400)  returns 0x00 (0000ms, 0401ms total)
T1613C 047:483 JLINK_WriteReg(R2, 0x000000FF)  returns 0x00 (0000ms, 0401ms total)
T1613C 047:483 JLINK_WriteReg(R3, 0x00000000)  returns 0x00 (0000ms, 0401ms total)
T1613C 047:483 JLINK_WriteReg(R4, 0x00000000)  returns 0x00 (0000ms, 0401ms total)
T1613C 047:483 JLINK_WriteReg(R5, 0x00000000)  returns 0x00 (0000ms, 0401ms total)
T1613C 047:483 JLINK_WriteReg(R6, 0x00000000)  returns 0x00 (0000ms, 0401ms total)
T1613C 047:483 JLINK_WriteReg(R7, 0x00000000)  returns 0x00 (0000ms, 0401ms total)
T1613C 047:483 JLINK_WriteReg(R8, 0x00000000)  returns 0x00 (0000ms, 0401ms total)
T1613C 047:483 JLINK_WriteReg(R9, 0x2000028C)  returns 0x00 (0000ms, 0401ms total)
T1613C 047:483 JLINK_WriteReg(R10, 0x00000000)  returns 0x00 (0000ms, 0401ms total)
T1613C 047:483 JLINK_WriteReg(R11, 0x00000000)  returns 0x00 (0000ms, 0401ms total)
T1613C 047:483 JLINK_WriteReg(R12, 0x00000000)  returns 0x00 (0001ms, 0402ms total)
T1613C 047:484 JLINK_WriteReg(R13 (SP), 0x20000800)  returns 0x00 (0000ms, 0402ms total)
T1613C 047:484 JLINK_WriteReg(R14, 0x20000001)  returns 0x00 (0000ms, 0402ms total)
T1613C 047:484 JLINK_WriteReg(R15 (PC), 0x20000128)  returns 0x00 (0000ms, 0402ms total)
T1613C 047:484 JLINK_WriteReg(XPSR, 0x01000000)  returns 0x00 (0000ms, 0402ms total)
T1613C 047:484 JLINK_WriteReg(MSP, 0x20000800)  returns 0x00 (0000ms, 0402ms total)
T1613C 047:484 JLINK_WriteReg(PSP, 0x20000800)  returns 0x00 (0000ms, 0402ms total)
T1613C 047:484 JLINK_WriteReg(CFBP, 0x00000000)  returns 0x00 (0000ms, 0402ms total)
T1613C 047:484 JLINK_SetBPEx(Addr = 0x20000000, Type = 0xFFFFFFF2)  returns 0x0000000B (0000ms, 0402ms total)
T1613C 047:484 JLINK_Go() -- CPU_WriteMem(4 bytes @ 0xE0002000) -- CPU_ReadMem(4 bytes @ 0xE0001000) -- CPU_WriteMem(4 bytes @ 0xE0001000) (0007ms, 0409ms total)
T1613C 047:491 JLINK_IsHalted()  returns FALSE (0001ms, 0410ms total)
T1613C 047:494 JLINK_IsHalted()  returns FALSE (0000ms, 0409ms total)
T1613C 047:496 JLINK_IsHalted()  returns TRUE (0006ms, 0415ms total)
T1613C 047:502 JLINK_ReadReg(R15 (PC)) -- CPU_ReadMem(4 bytes @ 0xE000EE08)  returns 0x20000000 (0000ms, 0409ms total)
T1613C 047:502 JLINK_ClrBPEx(BPHandle = 0x0000000B)  returns 0x00 (0000ms, 0409ms total)
T1613C 047:502 JLINK_ReadReg(R0)  returns 0x00000000 (0000ms, 0409ms total)
T1613C 047:503 JLINK_WriteReg(R0, 0x08003C00)  returns 0x00 (0000ms, 0409ms total)
T1613C 047:503 JLINK_WriteReg(R1, 0x00000400)  returns 0x00 (0000ms, 0409ms total)
T1613C 047:503 JLINK_WriteReg(R2, 0x000000FF)  returns 0x00 (0000ms, 0409ms total)
T1613C 047:503 JLINK_WriteReg(R3, 0x00000000)  returns 0x00 (0000ms, 0409ms total)
T1613C 047:503 JLINK_WriteReg(R4, 0x00000000)  returns 0x00 (0000ms, 0409ms total)
T1613C 047:503 JLINK_WriteReg(R5, 0x00000000)  returns 0x00 (0000ms, 0409ms total)
T1613C 047:503 JLINK_WriteReg(R6, 0x00000000)  returns 0x00 (0000ms, 0409ms total)
T1613C 047:503 JLINK_WriteReg(R7, 0x00000000)  returns 0x00 (0000ms, 0409ms total)
T1613C 047:503 JLINK_WriteReg(R8, 0x00000000)  returns 0x00 (0000ms, 0409ms total)
T1613C 047:503 JLINK_WriteReg(R9, 0x2000028C)  returns 0x00 (0000ms, 0409ms total)
T1613C 047:503 JLINK_WriteReg(R10, 0x00000000)  returns 0x00 (0000ms, 0409ms total)
T1613C 047:503 JLINK_WriteReg(R11, 0x00000000)  returns 0x00 (0000ms, 0409ms total)
T1613C 047:503 JLINK_WriteReg(R12, 0x00000000)  returns 0x00 (0000ms, 0409ms total)
T1613C 047:503 JLINK_WriteReg(R13 (SP), 0x20000800)  returns 0x00 (0000ms, 0409ms total)
T1613C 047:503 JLINK_WriteReg(R14, 0x20000001)  returns 0x00 (0000ms, 0409ms total)
T1613C 047:503 JLINK_WriteReg(R15 (PC), 0x20000020)  returns 0x00 (0000ms, 0409ms total)
T1613C 047:503 JLINK_WriteReg(XPSR, 0x01000000)  returns 0x00 (0000ms, 0409ms total)
T1613C 047:503 JLINK_WriteReg(MSP, 0x20000800)  returns 0x00 (0000ms, 0409ms total)
T1613C 047:503 JLINK_WriteReg(PSP, 0x20000800)  returns 0x00 (0000ms, 0409ms total)
T1613C 047:503 JLINK_WriteReg(CFBP, 0x00000000)  returns 0x00 (0000ms, 0409ms total)
T1613C 047:503 JLINK_SetBPEx(Addr = 0x20000000, Type = 0xFFFFFFF2)  returns 0x0000000C (0000ms, 0409ms total)
T1613C 047:503 JLINK_Go() -- CPU_WriteMem(4 bytes @ 0xE0002000) -- CPU_ReadMem(4 bytes @ 0xE0001000) -- CPU_WriteMem(4 bytes @ 0xE0001000) (0007ms, 0416ms total)
T1613C 047:510 JLINK_IsHalted()  returns TRUE (0006ms, 0422ms total)
T1613C 047:516 JLINK_ReadReg(R15 (PC)) -- CPU_ReadMem(4 bytes @ 0xE000EE08)  returns 0x20000000 (0001ms, 0417ms total)
T1613C 047:517 JLINK_ClrBPEx(BPHandle = 0x0000000C)  returns 0x00 (0000ms, 0417ms total)
T1613C 047:517 JLINK_ReadReg(R0)  returns 0x00000001 (0000ms, 0417ms total)
T1613C 047:517 JLINK_WriteReg(R0, 0x08003C00)  returns 0x00 (0000ms, 0417ms total)
T1613C 047:517 JLINK_WriteReg(R1, 0x00000400)  returns 0x00 (0000ms, 0417ms total)
T1613C 047:517 JLINK_WriteReg(R2, 0x000000FF)  returns 0x00 (0000ms, 0417ms total)
T1613C 047:517 JLINK_WriteReg(R3, 0x00000000)  returns 0x00 (0000ms, 0417ms total)
T1613C 047:517 JLINK_WriteReg(R4, 0x00000000)  returns 0x00 (0000ms, 0417ms total)
T1613C 047:517 JLINK_WriteReg(R5, 0x00000000)  returns 0x00 (0000ms, 0417ms total)
T1613C 047:517 JLINK_WriteReg(R6, 0x00000000)  returns 0x00 (0000ms, 0417ms total)
T1613C 047:517 JLINK_WriteReg(R7, 0x00000000)  returns 0x00 (0000ms, 0417ms total)
T1613C 047:517 JLINK_WriteReg(R8, 0x00000000)  returns 0x00 (0000ms, 0417ms total)
T1613C 047:517 JLINK_WriteReg(R9, 0x2000028C)  returns 0x00 (0000ms, 0417ms total)
T1613C 047:517 JLINK_WriteReg(R10, 0x00000000)  returns 0x00 (0000ms, 0417ms total)
T1613C 047:517 JLINK_WriteReg(R11, 0x00000000)  returns 0x00 (0000ms, 0417ms total)
T1613C 047:517 JLINK_WriteReg(R12, 0x00000000)  returns 0x00 (0000ms, 0417ms total)
T1613C 047:517 JLINK_WriteReg(R13 (SP), 0x20000800)  returns 0x00 (0000ms, 0417ms total)
T1613C 047:517 JLINK_WriteReg(R14, 0x20000001)  returns 0x00 (0000ms, 0417ms total)
T1613C 047:517 JLINK_WriteReg(R15 (PC), 0x20000128)  returns 0x00 (0000ms, 0417ms total)
T1613C 047:517 JLINK_WriteReg(XPSR, 0x01000000)  returns 0x00 (0000ms, 0417ms total)
T1613C 047:517 JLINK_WriteReg(MSP, 0x20000800)  returns 0x00 (0000ms, 0417ms total)
T1613C 047:517 JLINK_WriteReg(PSP, 0x20000800)  returns 0x00 (0000ms, 0417ms total)
T1613C 047:517 JLINK_WriteReg(CFBP, 0x00000000)  returns 0x00 (0000ms, 0417ms total)
T1613C 047:517 JLINK_SetBPEx(Addr = 0x20000000, Type = 0xFFFFFFF2)  returns 0x0000000D (0000ms, 0417ms total)
T1613C 047:517 JLINK_Go() -- CPU_WriteMem(4 bytes @ 0xE0002000) -- CPU_ReadMem(4 bytes @ 0xE0001000) -- CPU_WriteMem(4 bytes @ 0xE0001000) (0008ms, 0425ms total)
T1613C 047:525 JLINK_IsHalted()  returns FALSE (0000ms, 0425ms total)
T1613C 047:530 JLINK_IsHalted()  returns TRUE (0006ms, 0431ms total)
T1613C 047:536 JLINK_ReadReg(R15 (PC)) -- CPU_ReadMem(4 bytes @ 0xE000EE08)  returns 0x20000000 (0000ms, 0425ms total)
T1613C 047:536 JLINK_ClrBPEx(BPHandle = 0x0000000D)  returns 0x00 (0000ms, 0425ms total)
T1613C 047:536 JLINK_ReadReg(R0)  returns 0x00000000 (0000ms, 0425ms total)
T1613C 047:537 JLINK_WriteReg(R0, 0x08004000)  returns 0x00 (0000ms, 0425ms total)
T1613C 047:537 JLINK_WriteReg(R1, 0x00000400)  returns 0x00 (0000ms, 0425ms total)
T1613C 047:537 JLINK_WriteReg(R2, 0x000000FF)  returns 0x00 (0000ms, 0425ms total)
T1613C 047:537 JLINK_WriteReg(R3, 0x00000000)  returns 0x00 (0000ms, 0425ms total)
T1613C 047:537 JLINK_WriteReg(R4, 0x00000000)  returns 0x00 (0000ms, 0425ms total)
T1613C 047:537 JLINK_WriteReg(R5, 0x00000000)  returns 0x00 (0000ms, 0425ms total)
T1613C 047:537 JLINK_WriteReg(R6, 0x00000000)  returns 0x00 (0000ms, 0425ms total)
T1613C 047:537 JLINK_WriteReg(R7, 0x00000000)  returns 0x00 (0000ms, 0425ms total)
T1613C 047:537 JLINK_WriteReg(R8, 0x00000000)  returns 0x00 (0000ms, 0425ms total)
T1613C 047:537 JLINK_WriteReg(R9, 0x2000028C)  returns 0x00 (0000ms, 0425ms total)
T1613C 047:537 JLINK_WriteReg(R10, 0x00000000)  returns 0x00 (0000ms, 0425ms total)
T1613C 047:537 JLINK_WriteReg(R11, 0x00000000)  returns 0x00 (0000ms, 0425ms total)
T1613C 047:537 JLINK_WriteReg(R12, 0x00000000)  returns 0x00 (0000ms, 0425ms total)
T1613C 047:537 JLINK_WriteReg(R13 (SP), 0x20000800)  returns 0x00 (0000ms, 0425ms total)
T1613C 047:537 JLINK_WriteReg(R14, 0x20000001)  returns 0x00 (0000ms, 0425ms total)
T1613C 047:537 JLINK_WriteReg(R15 (PC), 0x20000020)  returns 0x00 (0000ms, 0425ms total)
T1613C 047:537 JLINK_WriteReg(XPSR, 0x01000000)  returns 0x00 (0000ms, 0425ms total)
T1613C 047:537 JLINK_WriteReg(MSP, 0x20000800)  returns 0x00 (0000ms, 0425ms total)
T1613C 047:537 JLINK_WriteReg(PSP, 0x20000800)  returns 0x00 (0000ms, 0425ms total)
T1613C 047:537 JLINK_WriteReg(CFBP, 0x00000000)  returns 0x00 (0000ms, 0425ms total)
T1613C 047:537 JLINK_SetBPEx(Addr = 0x20000000, Type = 0xFFFFFFF2)  returns 0x0000000E (0000ms, 0425ms total)
T1613C 047:537 JLINK_Go() -- CPU_WriteMem(4 bytes @ 0xE0002000) -- CPU_ReadMem(4 bytes @ 0xE0001000) -- CPU_WriteMem(4 bytes @ 0xE0001000) (0008ms, 0433ms total)
T1613C 047:545 JLINK_IsHalted()  returns TRUE (0005ms, 0438ms total)
T1613C 047:550 JLINK_ReadReg(R15 (PC)) -- CPU_ReadMem(4 bytes @ 0xE000EE08)  returns 0x20000000 (0001ms, 0434ms total)
T1613C 047:551 JLINK_ClrBPEx(BPHandle = 0x0000000E)  returns 0x00 (0000ms, 0434ms total)
T1613C 047:551 JLINK_ReadReg(R0)  returns 0x00000001 (0000ms, 0434ms total)
T1613C 047:551 JLINK_WriteReg(R0, 0x08004000)  returns 0x00 (0000ms, 0434ms total)
T1613C 047:551 JLINK_WriteReg(R1, 0x00000400)  returns 0x00 (0000ms, 0434ms total)
T1613C 047:551 JLINK_WriteReg(R2, 0x000000FF)  returns 0x00 (0000ms, 0434ms total)
T1613C 047:551 JLINK_WriteReg(R3, 0x00000000)  returns 0x00 (0000ms, 0434ms total)
T1613C 047:551 JLINK_WriteReg(R4, 0x00000000)  returns 0x00 (0000ms, 0434ms total)
T1613C 047:551 JLINK_WriteReg(R5, 0x00000000)  returns 0x00 (0000ms, 0434ms total)
T1613C 047:551 JLINK_WriteReg(R6, 0x00000000)  returns 0x00 (0000ms, 0434ms total)
T1613C 047:551 JLINK_WriteReg(R7, 0x00000000)  returns 0x00 (0000ms, 0434ms total)
T1613C 047:551 JLINK_WriteReg(R8, 0x00000000)  returns 0x00 (0000ms, 0434ms total)
T1613C 047:551 JLINK_WriteReg(R9, 0x2000028C)  returns 0x00 (0000ms, 0434ms total)
T1613C 047:551 JLINK_WriteReg(R10, 0x00000000)  returns 0x00 (0000ms, 0434ms total)
T1613C 047:551 JLINK_WriteReg(R11, 0x00000000)  returns 0x00 (0000ms, 0434ms total)
T1613C 047:551 JLINK_WriteReg(R12, 0x00000000)  returns 0x00 (0000ms, 0434ms total)
T1613C 047:551 JLINK_WriteReg(R13 (SP), 0x20000800)  returns 0x00 (0000ms, 0434ms total)
T1613C 047:551 JLINK_WriteReg(R14, 0x20000001)  returns 0x00 (0000ms, 0434ms total)
T1613C 047:551 JLINK_WriteReg(R15 (PC), 0x20000128)  returns 0x00 (0000ms, 0434ms total)
T1613C 047:551 JLINK_WriteReg(XPSR, 0x01000000)  returns 0x00 (0000ms, 0434ms total)
T1613C 047:551 JLINK_WriteReg(MSP, 0x20000800)  returns 0x00 (0000ms, 0434ms total)
T1613C 047:551 JLINK_WriteReg(PSP, 0x20000800)  returns 0x00 (0000ms, 0434ms total)
T1613C 047:551 JLINK_WriteReg(CFBP, 0x00000000)  returns 0x00 (0000ms, 0434ms total)
T1613C 047:551 JLINK_SetBPEx(Addr = 0x20000000, Type = 0xFFFFFFF2)  returns 0x0000000F (0000ms, 0434ms total)
T1613C 047:551 JLINK_Go() -- CPU_WriteMem(4 bytes @ 0xE0002000) -- CPU_ReadMem(4 bytes @ 0xE0001000) -- CPU_WriteMem(4 bytes @ 0xE0001000) (0007ms, 0441ms total)
T1613C 047:558 JLINK_IsHalted()  returns FALSE (0001ms, 0442ms total)
T1613C 047:561 JLINK_IsHalted()  returns FALSE (0000ms, 0441ms total)
T1613C 047:563 JLINK_IsHalted()  returns TRUE (0006ms, 0447ms total)
T1613C 047:569 JLINK_ReadReg(R15 (PC)) -- CPU_ReadMem(4 bytes @ 0xE000EE08)  returns 0x20000000 (0001ms, 0442ms total)
T1613C 047:570 JLINK_ClrBPEx(BPHandle = 0x0000000F)  returns 0x00 (0000ms, 0442ms total)
T1613C 047:570 JLINK_ReadReg(R0)  returns 0x00000000 (0000ms, 0442ms total)
T1613C 047:570 JLINK_WriteReg(R0, 0x08004400)  returns 0x00 (0000ms, 0442ms total)
T1613C 047:570 JLINK_WriteReg(R1, 0x00000400)  returns 0x00 (0001ms, 0443ms total)
T1613C 047:571 JLINK_WriteReg(R2, 0x000000FF)  returns 0x00 (0000ms, 0443ms total)
T1613C 047:571 JLINK_WriteReg(R3, 0x00000000)  returns 0x00 (0000ms, 0443ms total)
T1613C 047:571 JLINK_WriteReg(R4, 0x00000000)  returns 0x00 (0000ms, 0443ms total)
T1613C 047:571 JLINK_WriteReg(R5, 0x00000000)  returns 0x00 (0000ms, 0443ms total)
T1613C 047:571 JLINK_WriteReg(R6, 0x00000000)  returns 0x00 (0000ms, 0443ms total)
T1613C 047:571 JLINK_WriteReg(R7, 0x00000000)  returns 0x00 (0000ms, 0443ms total)
T1613C 047:571 JLINK_WriteReg(R8, 0x00000000)  returns 0x00 (0000ms, 0443ms total)
T1613C 047:571 JLINK_WriteReg(R9, 0x2000028C)  returns 0x00 (0000ms, 0443ms total)
T1613C 047:571 JLINK_WriteReg(R10, 0x00000000)  returns 0x00 (0000ms, 0443ms total)
T1613C 047:571 JLINK_WriteReg(R11, 0x00000000)  returns 0x00 (0000ms, 0443ms total)
T1613C 047:571 JLINK_WriteReg(R12, 0x00000000)  returns 0x00 (0000ms, 0443ms total)
T1613C 047:571 JLINK_WriteReg(R13 (SP), 0x20000800)  returns 0x00 (0000ms, 0443ms total)
T1613C 047:571 JLINK_WriteReg(R14, 0x20000001)  returns 0x00 (0000ms, 0443ms total)
T1613C 047:571 JLINK_WriteReg(R15 (PC), 0x20000020)  returns 0x00 (0000ms, 0443ms total)
T1613C 047:571 JLINK_WriteReg(XPSR, 0x01000000)  returns 0x00 (0000ms, 0443ms total)
T1613C 047:571 JLINK_WriteReg(MSP, 0x20000800)  returns 0x00 (0000ms, 0443ms total)
T1613C 047:571 JLINK_WriteReg(PSP, 0x20000800)  returns 0x00 (0001ms, 0444ms total)
T1613C 047:572 JLINK_WriteReg(CFBP, 0x00000000)  returns 0x00 (0000ms, 0444ms total)
T1613C 047:572 JLINK_SetBPEx(Addr = 0x20000000, Type = 0xFFFFFFF2)  returns 0x00000010 (0000ms, 0444ms total)
T1613C 047:572 JLINK_Go() -- CPU_WriteMem(4 bytes @ 0xE0002000) -- CPU_ReadMem(4 bytes @ 0xE0001000) -- CPU_WriteMem(4 bytes @ 0xE0001000) (0007ms, 0451ms total)
T1613C 047:579 JLINK_IsHalted()  returns TRUE (0006ms, 0457ms total)
T1613C 047:585 JLINK_ReadReg(R15 (PC)) -- CPU_ReadMem(4 bytes @ 0xE000EE08)  returns 0x20000000 (0000ms, 0451ms total)
T1613C 047:585 JLINK_ClrBPEx(BPHandle = 0x00000010)  returns 0x00 (0001ms, 0452ms total)
T1613C 047:586 JLINK_ReadReg(R0)  returns 0x00000001 (0000ms, 0452ms total)
T1613C 047:586 JLINK_WriteReg(R0, 0x08004400)  returns 0x00 (0000ms, 0452ms total)
T1613C 047:586 JLINK_WriteReg(R1, 0x00000400)  returns 0x00 (0000ms, 0452ms total)
T1613C 047:586 JLINK_WriteReg(R2, 0x000000FF)  returns 0x00 (0000ms, 0452ms total)
T1613C 047:586 JLINK_WriteReg(R3, 0x00000000)  returns 0x00 (0000ms, 0452ms total)
T1613C 047:586 JLINK_WriteReg(R4, 0x00000000)  returns 0x00 (0000ms, 0452ms total)
T1613C 047:586 JLINK_WriteReg(R5, 0x00000000)  returns 0x00 (0000ms, 0452ms total)
T1613C 047:586 JLINK_WriteReg(R6, 0x00000000)  returns 0x00 (0000ms, 0452ms total)
T1613C 047:586 JLINK_WriteReg(R7, 0x00000000)  returns 0x00 (0000ms, 0452ms total)
T1613C 047:586 JLINK_WriteReg(R8, 0x00000000)  returns 0x00 (0000ms, 0452ms total)
T1613C 047:586 JLINK_WriteReg(R9, 0x2000028C)  returns 0x00 (0000ms, 0452ms total)
T1613C 047:586 JLINK_WriteReg(R10, 0x00000000)  returns 0x00 (0000ms, 0452ms total)
T1613C 047:586 JLINK_WriteReg(R11, 0x00000000)  returns 0x00 (0000ms, 0452ms total)
T1613C 047:586 JLINK_WriteReg(R12, 0x00000000)  returns 0x00 (0000ms, 0452ms total)
T1613C 047:586 JLINK_WriteReg(R13 (SP), 0x20000800)  returns 0x00 (0000ms, 0452ms total)
T1613C 047:586 JLINK_WriteReg(R14, 0x20000001)  returns 0x00 (0000ms, 0452ms total)
T1613C 047:586 JLINK_WriteReg(R15 (PC), 0x20000128)  returns 0x00 (0000ms, 0452ms total)
T1613C 047:586 JLINK_WriteReg(XPSR, 0x01000000)  returns 0x00 (0000ms, 0452ms total)
T1613C 047:586 JLINK_WriteReg(MSP, 0x20000800)  returns 0x00 (0000ms, 0452ms total)
T1613C 047:586 JLINK_WriteReg(PSP, 0x20000800)  returns 0x00 (0000ms, 0452ms total)
T1613C 047:586 JLINK_WriteReg(CFBP, 0x00000000)  returns 0x00 (0000ms, 0452ms total)
T1613C 047:586 JLINK_SetBPEx(Addr = 0x20000000, Type = 0xFFFFFFF2)  returns 0x00000011 (0000ms, 0452ms total)
T1613C 047:586 JLINK_Go() -- CPU_WriteMem(4 bytes @ 0xE0002000) -- CPU_ReadMem(4 bytes @ 0xE0001000) -- CPU_WriteMem(4 bytes @ 0xE0001000) (0007ms, 0459ms total)
T1613C 047:593 JLINK_IsHalted()  returns FALSE (0001ms, 0460ms total)
T1613C 047:596 JLINK_IsHalted()  returns FALSE (0000ms, 0459ms total)
T1613C 047:598 JLINK_IsHalted()  returns TRUE (0005ms, 0464ms total)
T1613C 047:603 JLINK_ReadReg(R15 (PC)) -- CPU_ReadMem(4 bytes @ 0xE000EE08)  returns 0x20000000 (0001ms, 0460ms total)
T1613C 047:604 JLINK_ClrBPEx(BPHandle = 0x00000011)  returns 0x00 (0000ms, 0460ms total)
T1613C 047:604 JLINK_ReadReg(R0)  returns 0x00000000 (0000ms, 0460ms total)
T1613C 047:604 JLINK_WriteReg(R0, 0x08004800)  returns 0x00 (0000ms, 0460ms total)
T1613C 047:604 JLINK_WriteReg(R1, 0x00000400)  returns 0x00 (0001ms, 0461ms total)
T1613C 047:605 JLINK_WriteReg(R2, 0x000000FF)  returns 0x00 (0000ms, 0461ms total)
